
T1D08 000:322 SEGGER J-Link V4.94j Log File (0000ms, 0275ms total)
T1D08 000:322 DLL Compiled: Dec 10 2014 13:52:41 (0000ms, 0275ms total)
T1D08 000:322 Logging started @ 2015-12-29 17:29 (0000ms, 0275ms total)
T1D08 000:322 JLINK_SetWarnOutHandler(...) (0000ms, 0275ms total)
T1D08 000:322 JLINK_OpenEx(...)
Firmware: J-Link ARM-OB STM32 compiled Aug 22 2012 19:52:04
Hardware: V7.00
S/N: 20090928
Feature(s): RDI,FlashDL,FlashBP,JFlash,GDBFull  returns O.K. (0274ms, 0549ms total)
T1D08 000:596 JLINK_SetErrorOutHandler(...) (0000ms, 0549ms total)
T1D08 000:596 JLINK_ExecCommand("ProjectFile = "G:\Users\sunxin\Desktop\新建文件夹\12-29傍晚只能遥控前进\USER\JLinkSettings.ini"", ...)  returns 0x00 (0001ms, 0550ms total)
T1D08 000:605 JLINK_ExecCommand("Device = STM32F103RE", ...)Device "STM32F103RE" selected.  returns 0x00 (0005ms, 0555ms total)
T1D08 000:610 JLINK_ExecCommand("DisableConnectionTimeout", ...)  returns 0x01 (0000ms, 0555ms total)
T1D08 000:610 JLINK_GetHardwareVersion()  returns 0x11170 (0000ms, 0555ms total)
T1D08 000:610 JLINK_GetDLLVersion()  returns 49410 (0000ms, 0555ms total)
T1D08 000:610 JLINK_GetFirmwareString(...) (0000ms, 0555ms total)
T1D08 000:622 JLINK_GetDLLVersion()  returns 49410 (0000ms, 0555ms total)
T1D08 000:622 JLINK_GetCompileDateTime() (0000ms, 0555ms total)
T1D08 000:625 JLINK_GetFirmwareString(...) (0000ms, 0555ms total)
T1D08 000:627 JLINK_GetHardwareVersion()  returns 0x11170 (0000ms, 0555ms total)
T1D08 000:634 JLINK_TIF_Select(JLINKARM_TIF_SWD)  returns 0x00 (0004ms, 0559ms total)
T1D08 000:638 JLINK_SetMaxSpeed() >0x108 TIF>Found SWD-DP with ID 0x1BA01477 >0x0D TIF> >0x28 TIF> >0x0D TIF> >0x28 TIF> >0x0D TIF> >0x21 TIF> >0x0D TIF> >0x28 TIF> >0x0D TIF> >0x28 TIF> >0x0D TIF> >0x28 TIF> >0x0D TIF> >0x21 TIF> >0x0D TIF> >0x21 TIF> >0x0D TIF> >0x28 TIF> >0x0D TIF> >0x21 TIF> >0x0D TIF> >0x21 TIF> >0x108 TIF>Found SWD-DP with ID 0x1BA01477 >0x0D TIF> >0x21 TIF> >0x0D TIF> >0x28 TIF> >0x0D TIF> >0x28 TIF> >0x0D TIF> >0x21 TIF> >0x0D TIF> >0x28 TIF> >0x0D TIF> >0x21 TIF> >0x0D TIF>
 >0x21 TIF> >0x0D TIF> >0x21 TIF> >0x0D TIF> >0x21 TIF> >0x0D TIF> >0x28 TIF> >0x0D TIF> >0x28 TIF> >0x0D TIF> >0x21 TIF> >0x0D TIF> >0x28 TIF> >0x0D TIF> >0x28 TIF> >0x0D TIF> >0x28 TIF> >0x0D TIF> >0x21 TIF> >0x0D TIF> >0x21 TIF> >0x0D TIF> >0x28 TIF> >0x0D TIF> >0x21 TIF> >0x0D TIF> >0x21 TIF>Found Cortex-M3 r1p1, Little endian. -- CPU_WriteMem(4 bytes @ 0xE0002000) -- CPU_ReadMem(4 bytes @ 0xE000EDF0) -- CPU_ReadMem(4 bytes @ 0xE0002000)FPUnit: 6 code (BP) slots and 2 literal slots
 -- CPU_ReadMem(4 bytes @ 0xE000EDFC) -- CPU_ReadMem(4 bytes @ 0xE0001000) -- CPU_WriteMem(4 bytes @ 0xE0001000) -- CPU_ReadMem(4 bytes @ 0xE000ED88) -- CPU_WriteMem(4 bytes @ 0xE000ED88) -- CPU_ReadMem(4 bytes @ 0xE000ED88) -- CPU_WriteMem(4 bytes @ 0xE000ED88) -- CPU_ReadMem(4 bytes @ 0xE00FF010)TPIU fitted. -- CPU_ReadMem(4 bytes @ 0xE00FF014)ETM fitted. -- CPU_ReadMem(4 bytes @ 0xE00FF018) (0123ms, 0682ms total)
T1D08 000:761 JLINK_GetSpeed()  returns 0x7D0 (0000ms, 0682ms total)
T1D08 000:761 JLINK_GetId() >0x0D TIF> >0x21 TIF>  returns 0x1BA01477 (0002ms, 0684ms total)
T1D08 000:763 JLINK_CORE_GetFound()  returns 0x30000FF (0000ms, 0684ms total)
T1D08 000:765 JLINK_ReadMem (0xE00FFFF0, 0x0010 Bytes, ...) -- CPU is running -- CPU_ReadMem(16 bytes @ 0xE00FFFF0) - Data: 0D 00 00 00 10 00 00 00 05 00 00 00 B1 00 00 00  returns 0x00 (0002ms, 0686ms total)
T1D08 000:767 JLINK_ReadMem (0xE00FFFD0, 0x0020 Bytes, ...) -- CPU is running -- CPU_ReadMem(32 bytes @ 0xE00FFFD0) - Data: 00 00 00 00 00 00 00 00 00 00 00 00 00 00 00 00 ...  returns 0x00 (0002ms, 0688ms total)
T1D08 000:769 JLINK_ReadMem (0xE00FF000, 0x0018 Bytes, ...) -- CPU is running -- CPU_ReadMem(24 bytes @ 0xE00FF000) - Data: 03 F0 F0 FF 03 20 F0 FF 03 30 F0 FF 03 10 F0 FF ...  returns 0x00 (0001ms, 0689ms total)
T1D08 000:770 JLINK_CORE_GetFound()  returns 0x30000FF (0000ms, 0689ms total)
T1D08 000:770 JLINK_ReadMemU32(0xE000ED00, 0x0001 Items, ...) -- CPU is running -- CPU_ReadMem(4 bytes @ 0xE000ED00) - Data: 31 C2 1F 41  returns 0x01 (0001ms, 0690ms total)
T1D08 000:771 JLINK_SetResetType(JLINKARM_RESET_TYPE_NORMAL)  returns JLINKARM_RESET_TYPE_NORMAL (0000ms, 0690ms total)
T1D08 000:771 JLINK_Reset() -- CPU is running -- CPU_WriteMem(4 bytes @ 0xE000EDF0) -- CPU is running -- CPU_WriteMem(4 bytes @ 0xE000EDFC) >0x35 TIF> -- CPU is running -- CPU_WriteMem(4 bytes @ 0xE000ED0C) -- CPU is running -- CPU_ReadMem(4 bytes @ 0xE000EDF0) -- CPU is running -- CPU_ReadMem(4 bytes @ 0xE000EDF0) -- CPU is running -- CPU_WriteMem(4 bytes @ 0xE000EDF0) -- CPU is running -- CPU_WriteMem(4 bytes @ 0xE000EDFC) -- CPU is running -- CPU_ReadMem(4 bytes @ 0xE000EDF0)
 -- CPU_WriteMem(4 bytes @ 0xE0002000) -- CPU_ReadMem(4 bytes @ 0xE000EDFC) -- CPU_ReadMem(4 bytes @ 0xE0001000) (0024ms, 0714ms total)
T1D08 000:795 JLINK_Halt()  returns 0x00 (0000ms, 0714ms total)
T1D08 000:795 JLINK_IsHalted()  returns TRUE (0000ms, 0714ms total)
T1D08 000:795 JLINK_ReadMemU32(0xE000EDF0, 0x0001 Items, ...) -- CPU_ReadMem(4 bytes @ 0xE000EDF0) - Data: 03 00 03 00  returns 0x01 (0001ms, 0715ms total)
T1D08 000:796 JLINK_WriteU32(0xE000EDF0, 0xA05F0003) -- CPU_WriteMem(4 bytes @ 0xE000EDF0)  returns 0x00 (0001ms, 0716ms total)
T1D08 000:797 JLINK_WriteU32(0xE000EDFC, 0x01000000) -- CPU_WriteMem(4 bytes @ 0xE000EDFC)  returns 0x00 (0001ms, 0717ms total)
T1D08 000:807 JLINK_GetHWStatus(...)  returns 0x00 (0001ms, 0718ms total)
T1D08 000:817 JLINK_GetNumBPUnits(Type = 0xFFFFFF00)  returns 0x06 (0000ms, 0718ms total)
T1D08 000:817 JLINK_GetNumBPUnits(Type = 0xF0)  returns 0x2000 (0000ms, 0718ms total)
T1D08 000:817 JLINK_GetNumWPUnits()  returns 0x04 (0000ms, 0718ms total)
T1D08 000:821 JLINK_GetSpeed()  returns 0x7D0 (0000ms, 0718ms total)
T1D08 000:824 JLINK_ReadMemU32(0xE000E004, 0x0001 Items, ...) -- CPU_ReadMem(4 bytes @ 0xE000E004) - Data: 01 00 00 00  returns 0x01 (0001ms, 0719ms total)
T1D08 000:825 JLINK_ReadMemU32(0xE000E004, 0x0001 Items, ...) -- CPU_ReadMem(4 bytes @ 0xE000E004) - Data: 01 00 00 00  returns 0x01 (0001ms, 0720ms total)
T1D08 000:826 JLINK_WriteMem(0xE0001000, 0x001C Bytes, ...) - Data: 01 00 00 00 00 00 00 00 00 00 00 00 00 00 00 00 ... -- CPU_WriteMem(28 bytes @ 0xE0001000)  returns 0x1C (0002ms, 0722ms total)
T1D08 000:828 JLINK_ReadMem (0xE0001000, 0x001C Bytes, ...) -- CPU_ReadMem(28 bytes @ 0xE0001000) - Data: 01 00 00 40 00 00 00 00 00 00 00 00 00 00 00 00 ...  returns 0x00 (0001ms, 0723ms total)
T1D08 000:829 JLINK_Halt()  returns 0x00 (0000ms, 0723ms total)
T1D08 000:829 JLINK_IsHalted()  returns TRUE (0000ms, 0723ms total)
T1D08 000:831 JLINK_WriteMem(0x20000000, 0x0164 Bytes, ...) - Data: 00 BE 0A E0 0D 78 2D 06 68 40 08 24 40 00 00 D3 ... -- CPU_WriteMem(356 bytes @ 0x20000000)  returns 0x164 (0005ms, 0728ms total)
T1D08 000:836 JLINK_WriteReg(R0, 0x08000000)  returns 0x00 (0000ms, 0728ms total)
T1D08 000:836 JLINK_WriteReg(R1, 0x00B71B00)  returns 0x00 (0000ms, 0728ms total)
T1D08 000:836 JLINK_WriteReg(R2, 0x00000001)  returns 0x00 (0000ms, 0728ms total)
T1D08 000:836 JLINK_WriteReg(R3, 0x00000000)  returns 0x00 (0000ms, 0728ms total)
T1D08 000:836 JLINK_WriteReg(R4, 0x00000000)  returns 0x00 (0000ms, 0728ms total)
T1D08 000:837 JLINK_WriteReg(R5, 0x00000000)  returns 0x00 (0000ms, 0728ms total)
T1D08 000:837 JLINK_WriteReg(R6, 0x00000000)  returns 0x00 (0000ms, 0728ms total)
T1D08 000:837 JLINK_WriteReg(R7, 0x00000000)  returns 0x00 (0000ms, 0728ms total)
T1D08 000:837 JLINK_WriteReg(R8, 0x00000000)  returns 0x00 (0000ms, 0728ms total)
T1D08 000:837 JLINK_WriteReg(R9, 0x20000160)  returns 0x00 (0000ms, 0728ms total)
T1D08 000:837 JLINK_WriteReg(R10, 0x00000000)  returns 0x00 (0000ms, 0728ms total)
T1D08 000:837 JLINK_WriteReg(R11, 0x00000000)  returns 0x00 (0000ms, 0728ms total)
T1D08 000:837 JLINK_WriteReg(R12, 0x00000000)  returns 0x00 (0000ms, 0728ms total)
T1D08 000:837 JLINK_WriteReg(R13 (SP), 0x20000800)  returns 0x00 (0000ms, 0728ms total)
T1D08 000:837 JLINK_WriteReg(R14, 0x20000001)  returns 0x00 (0000ms, 0728ms total)
T1D08 000:837 JLINK_WriteReg(R15 (PC), 0x20000038)  returns 0x00 (0000ms, 0728ms total)
T1D08 000:837 JLINK_WriteReg(XPSR, 0x01000000)  returns 0x00 (0000ms, 0728ms total)
T1D08 000:837 JLINK_WriteReg(MSP, 0x20000800)  returns 0x00 (0000ms, 0728ms total)
T1D08 000:837 JLINK_WriteReg(PSP, 0x20000800)  returns 0x00 (0000ms, 0728ms total)
T1D08 000:837 JLINK_WriteReg(CFBP, 0x00000000)  returns 0x00 (0000ms, 0728ms total)
T1D08 000:837 JLINK_SetBPEx(Addr = 0x20000000, Type = 0xFFFFFFF2) -- CPU_ReadMem(2 bytes @ 0x20000000)  returns 0x00000001 (0001ms, 0729ms total)
T1D08 000:838 JLINK_Go() -- CPU_WriteMem(2 bytes @ 0x20000000) -- CPU_WriteMem(4 bytes @ 0xE0002008) -- CPU_WriteMem(4 bytes @ 0xE000200C) -- CPU_WriteMem(4 bytes @ 0xE0002010) -- CPU_WriteMem(4 bytes @ 0xE0002014) -- CPU_WriteMem(4 bytes @ 0xE0002018) -- CPU_WriteMem(4 bytes @ 0xE000201C) -- CPU_WriteMem(4 bytes @ 0xE0001004) (0011ms, 0740ms total)
T1D08 000:849 JLINK_IsHalted() -- CPU_ReadMem(2 bytes @ 0x20000000)  returns TRUE (0005ms, 0745ms total)
T1D08 000:854 JLINK_ReadReg(R15 (PC))  returns 0x20000000 (0000ms, 0740ms total)
T1D08 000:854 JLINK_ClrBPEx(BPHandle = 0x00000001)  returns 0x00 (0000ms, 0740ms total)
T1D08 000:854 JLINK_ReadReg(R0)  returns 0x00000000 (0000ms, 0740ms total)
T1D08 000:854 JLINK_WriteReg(R0, 0x08000000)  returns 0x00 (0000ms, 0740ms total)
T1D08 000:854 JLINK_WriteReg(R1, 0x00B71B00)  returns 0x00 (0001ms, 0741ms total)
T1D08 000:855 JLINK_WriteReg(R2, 0x00000001)  returns 0x00 (0000ms, 0741ms total)
T1D08 000:855 JLINK_WriteReg(R3, 0x00000000)  returns 0x00 (0000ms, 0741ms total)
T1D08 000:855 JLINK_WriteReg(R4, 0x00000000)  returns 0x00 (0000ms, 0741ms total)
T1D08 000:855 JLINK_WriteReg(R5, 0x00000000)  returns 0x00 (0000ms, 0741ms total)
T1D08 000:855 JLINK_WriteReg(R6, 0x00000000)  returns 0x00 (0000ms, 0741ms total)
T1D08 000:855 JLINK_WriteReg(R7, 0x00000000)  returns 0x00 (0000ms, 0741ms total)
T1D08 000:855 JLINK_WriteReg(R8, 0x00000000)  returns 0x00 (0000ms, 0741ms total)
T1D08 000:855 JLINK_WriteReg(R9, 0x20000160)  returns 0x00 (0000ms, 0741ms total)
T1D08 000:855 JLINK_WriteReg(R10, 0x00000000)  returns 0x00 (0000ms, 0741ms total)
T1D08 000:855 JLINK_WriteReg(R11, 0x00000000)  returns 0x00 (0000ms, 0741ms total)
T1D08 000:855 JLINK_WriteReg(R12, 0x00000000)  returns 0x00 (0000ms, 0741ms total)
T1D08 000:855 JLINK_WriteReg(R13 (SP), 0x20000800)  returns 0x00 (0000ms, 0741ms total)
T1D08 000:855 JLINK_WriteReg(R14, 0x20000001)  returns 0x00 (0000ms, 0741ms total)
T1D08 000:855 JLINK_WriteReg(R15 (PC), 0x2000007C)  returns 0x00 (0000ms, 0741ms total)
T1D08 000:855 JLINK_WriteReg(XPSR, 0x01000000)  returns 0x00 (0000ms, 0741ms total)
T1D08 000:855 JLINK_WriteReg(MSP, 0x20000800)  returns 0x00 (0000ms, 0741ms total)
T1D08 000:855 JLINK_WriteReg(PSP, 0x20000800)  returns 0x00 (0000ms, 0741ms total)
T1D08 000:855 JLINK_WriteReg(CFBP, 0x00000000)  returns 0x00 (0000ms, 0741ms total)
T1D08 000:855 JLINK_SetBPEx(Addr = 0x20000000, Type = 0xFFFFFFF2)  returns 0x00000002 (0000ms, 0741ms total)
T1D08 000:855 JLINK_Go() (0002ms, 0743ms total)
T1D08 000:857 JLINK_IsHalted()  returns FALSE (0001ms, 0744ms total)
T1D08 000:897 JLINK_IsHalted() -- CPU_ReadMem(2 bytes @ 0x20000000)  returns TRUE (0005ms, 0748ms total)
T1D08 000:902 JLINK_ReadReg(R15 (PC))  returns 0x20000000 (0000ms, 0743ms total)
T1D08 000:902 JLINK_ClrBPEx(BPHandle = 0x00000002)  returns 0x00 (0000ms, 0743ms total)
T1D08 000:902 JLINK_ReadReg(R0)  returns 0x00000000 (0000ms, 0743ms total)
T1D08 000:956 JLINK_WriteReg(R0, 0x00000001)  returns 0x00 (0000ms, 0743ms total)
T1D08 000:956 JLINK_WriteReg(R1, 0x00B71B00)  returns 0x00 (0000ms, 0743ms total)
T1D08 000:956 JLINK_WriteReg(R2, 0x00000001)  returns 0x00 (0000ms, 0743ms total)
T1D08 000:956 JLINK_WriteReg(R3, 0x00000000)  returns 0x00 (0000ms, 0743ms total)
T1D08 000:956 JLINK_WriteReg(R4, 0x00000000)  returns 0x00 (0000ms, 0743ms total)
T1D08 000:956 JLINK_WriteReg(R5, 0x00000000)  returns 0x00 (0000ms, 0743ms total)
T1D08 000:956 JLINK_WriteReg(R6, 0x00000000)  returns 0x00 (0000ms, 0743ms total)
T1D08 000:956 JLINK_WriteReg(R7, 0x00000000)  returns 0x00 (0001ms, 0744ms total)
T1D08 000:957 JLINK_WriteReg(R8, 0x00000000)  returns 0x00 (0000ms, 0744ms total)
T1D08 000:957 JLINK_WriteReg(R9, 0x20000160)  returns 0x00 (0000ms, 0744ms total)
T1D08 000:957 JLINK_WriteReg(R10, 0x00000000)  returns 0x00 (0000ms, 0744ms total)
T1D08 000:957 JLINK_WriteReg(R11, 0x00000000)  returns 0x00 (0000ms, 0744ms total)
T1D08 000:957 JLINK_WriteReg(R12, 0x00000000)  returns 0x00 (0000ms, 0744ms total)
T1D08 000:957 JLINK_WriteReg(R13 (SP), 0x20000800)  returns 0x00 (0000ms, 0744ms total)
T1D08 000:957 JLINK_WriteReg(R14, 0x20000001)  returns 0x00 (0000ms, 0744ms total)
T1D08 000:957 JLINK_WriteReg(R15 (PC), 0x2000006A)  returns 0x00 (0000ms, 0744ms total)
T1D08 000:957 JLINK_WriteReg(XPSR, 0x01000000)  returns 0x00 (0000ms, 0744ms total)
T1D08 000:957 JLINK_WriteReg(MSP, 0x20000800)  returns 0x00 (0000ms, 0744ms total)
T1D08 000:957 JLINK_WriteReg(PSP, 0x20000800)  returns 0x00 (0000ms, 0744ms total)
T1D08 000:957 JLINK_WriteReg(CFBP, 0x00000000)  returns 0x00 (0000ms, 0744ms total)
T1D08 000:957 JLINK_SetBPEx(Addr = 0x20000000, Type = 0xFFFFFFF2)  returns 0x00000003 (0000ms, 0744ms total)
T1D08 000:957 JLINK_Go() (0003ms, 0747ms total)
T1D08 000:960 JLINK_IsHalted() -- CPU_ReadMem(2 bytes @ 0x20000000)  returns TRUE (0005ms, 0752ms total)
T1D08 000:965 JLINK_ReadReg(R15 (PC))  returns 0x20000000 (0000ms, 0747ms total)
T1D08 000:965 JLINK_ClrBPEx(BPHandle = 0x00000003)  returns 0x00 (0000ms, 0747ms total)
T1D08 000:965 JLINK_ReadReg(R0)  returns 0x00000000 (0000ms, 0747ms total)
T1D08 000:971 JLINK_WriteMem(0x20000000, 0x0164 Bytes, ...) - Data: 00 BE 0A E0 0D 78 2D 06 68 40 08 24 40 00 00 D3 ... -- CPU_WriteMem(356 bytes @ 0x20000000)  returns 0x164 (0005ms, 0752ms total)
T1D08 000:976 JLINK_WriteReg(R0, 0x08000000)  returns 0x00 (0000ms, 0752ms total)
T1D08 000:976 JLINK_WriteReg(R1, 0x00B71B00)  returns 0x00 (0000ms, 0752ms total)
T1D08 000:976 JLINK_WriteReg(R2, 0x00000002)  returns 0x00 (0000ms, 0752ms total)
T1D08 000:976 JLINK_WriteReg(R3, 0x00000000)  returns 0x00 (0000ms, 0752ms total)
T1D08 000:977 JLINK_WriteReg(R4, 0x00000000)  returns 0x00 (0000ms, 0753ms total)
T1D08 000:977 JLINK_WriteReg(R5, 0x00000000)  returns 0x00 (0000ms, 0753ms total)
T1D08 000:977 JLINK_WriteReg(R6, 0x00000000)  returns 0x00 (0000ms, 0753ms total)
T1D08 000:977 JLINK_WriteReg(R7, 0x00000000)  returns 0x00 (0000ms, 0753ms total)
T1D08 000:977 JLINK_WriteReg(R8, 0x00000000)  returns 0x00 (0000ms, 0753ms total)
T1D08 000:977 JLINK_WriteReg(R9, 0x20000160)  returns 0x00 (0000ms, 0753ms total)
T1D08 000:977 JLINK_WriteReg(R10, 0x00000000)  returns 0x00 (0000ms, 0753ms total)
T1D08 000:977 JLINK_WriteReg(R11, 0x00000000)  returns 0x00 (0000ms, 0753ms total)
T1D08 000:977 JLINK_WriteReg(R12, 0x00000000)  returns 0x00 (0000ms, 0753ms total)
T1D08 000:977 JLINK_WriteReg(R13 (SP), 0x20000800)  returns 0x00 (0000ms, 0753ms total)
T1D08 000:977 JLINK_WriteReg(R14, 0x20000001)  returns 0x00 (0000ms, 0753ms total)
T1D08 000:977 JLINK_WriteReg(R15 (PC), 0x20000038)  returns 0x00 (0000ms, 0753ms total)
T1D08 000:977 JLINK_WriteReg(XPSR, 0x01000000)  returns 0x00 (0000ms, 0753ms total)
T1D08 000:977 JLINK_WriteReg(MSP, 0x20000800)  returns 0x00 (0000ms, 0753ms total)
T1D08 000:977 JLINK_WriteReg(PSP, 0x20000800)  returns 0x00 (0000ms, 0753ms total)
T1D08 000:977 JLINK_WriteReg(CFBP, 0x00000000)  returns 0x00 (0000ms, 0753ms total)
T1D08 000:977 JLINK_SetBPEx(Addr = 0x20000000, Type = 0xFFFFFFF2) -- CPU_ReadMem(2 bytes @ 0x20000000)  returns 0x00000004 (0001ms, 0754ms total)
T1D08 000:978 JLINK_Go() -- CPU_WriteMem(2 bytes @ 0x20000000) (0003ms, 0757ms total)
T1D08 000:981 JLINK_IsHalted() -- CPU_ReadMem(2 bytes @ 0x20000000)  returns TRUE (0005ms, 0762ms total)
T1D08 000:986 JLINK_ReadReg(R15 (PC))  returns 0x20000000 (0000ms, 0757ms total)
T1D08 000:986 JLINK_ClrBPEx(BPHandle = 0x00000004)  returns 0x00 (0000ms, 0757ms total)
T1D08 000:986 JLINK_ReadReg(R0)  returns 0x00000000 (0000ms, 0757ms total)
T1D08 000:987 JLINK_WriteMem(0x20000164, 0x0400 Bytes, ...) - Data: 30 06 00 20 21 83 00 08 0D 04 00 08 0F 04 00 08 ... -- CPU_WriteMem(1024 bytes @ 0x20000164)  returns 0x400 (0012ms, 0769ms total)
T1D08 000:999 JLINK_WriteReg(R0, 0x08000000)  returns 0x00 (0000ms, 0769ms total)
T1D08 000:999 JLINK_WriteReg(R1, 0x00000400)  returns 0x00 (0000ms, 0769ms total)
T1D08 000:999 JLINK_WriteReg(R2, 0x20000164)  returns 0x00 (0000ms, 0769ms total)
T1D08 000:999 JLINK_WriteReg(R3, 0x00000000)  returns 0x00 (0000ms, 0769ms total)
T1D08 000:999 JLINK_WriteReg(R4, 0x00000000)  returns 0x00 (0000ms, 0769ms total)
T1D08 000:999 JLINK_WriteReg(R5, 0x00000000)  returns 0x00 (0000ms, 0769ms total)
T1D08 000:999 JLINK_WriteReg(R6, 0x00000000)  returns 0x00 (0000ms, 0769ms total)
T1D08 000:999 JLINK_WriteReg(R7, 0x00000000)  returns 0x00 (0000ms, 0769ms total)
T1D08 000:999 JLINK_WriteReg(R8, 0x00000000)  returns 0x00 (0000ms, 0769ms total)
T1D08 000:999 JLINK_WriteReg(R9, 0x20000160)  returns 0x00 (0000ms, 0769ms total)
T1D08 000:999 JLINK_WriteReg(R10, 0x00000000)  returns 0x00 (0001ms, 0770ms total)
T1D08 001:000 JLINK_WriteReg(R11, 0x00000000)  returns 0x00 (0000ms, 0770ms total)
T1D08 001:000 JLINK_WriteReg(R12, 0x00000000)  returns 0x00 (0000ms, 0770ms total)
T1D08 001:000 JLINK_WriteReg(R13 (SP), 0x20000800)  returns 0x00 (0000ms, 0770ms total)
T1D08 001:000 JLINK_WriteReg(R14, 0x20000001)  returns 0x00 (0000ms, 0770ms total)
T1D08 001:000 JLINK_WriteReg(R15 (PC), 0x200000F4)  returns 0x00 (0000ms, 0770ms total)
T1D08 001:000 JLINK_WriteReg(XPSR, 0x01000000)  returns 0x00 (0000ms, 0770ms total)
T1D08 001:000 JLINK_WriteReg(MSP, 0x20000800)  returns 0x00 (0000ms, 0770ms total)
T1D08 001:000 JLINK_WriteReg(PSP, 0x20000800)  returns 0x00 (0000ms, 0770ms total)
T1D08 001:000 JLINK_WriteReg(CFBP, 0x00000000)  returns 0x00 (0000ms, 0770ms total)
T1D08 001:000 JLINK_SetBPEx(Addr = 0x20000000, Type = 0xFFFFFFF2)  returns 0x00000005 (0000ms, 0770ms total)
T1D08 001:000 JLINK_Go() (0002ms, 0772ms total)
T1D08 001:002 JLINK_IsHalted()  returns FALSE (0002ms, 0774ms total)
T1D08 001:018 JLINK_IsHalted()  returns FALSE (0001ms, 0773ms total)
T1D08 001:020 JLINK_IsHalted()  returns FALSE (0001ms, 0773ms total)
T1D08 001:022 JLINK_IsHalted()  returns FALSE (0001ms, 0773ms total)
T1D08 001:024 JLINK_IsHalted()  returns FALSE (0001ms, 0773ms total)
T1D08 001:026 JLINK_IsHalted()  returns FALSE (0001ms, 0773ms total)
T1D08 001:028 JLINK_IsHalted()  returns FALSE (0001ms, 0773ms total)
T1D08 001:030 JLINK_IsHalted()  returns FALSE (0001ms, 0773ms total)
T1D08 001:032 JLINK_IsHalted()  returns FALSE (0001ms, 0773ms total)
T1D08 001:034 JLINK_IsHalted() -- CPU_ReadMem(2 bytes @ 0x20000000)  returns TRUE (0005ms, 0777ms total)
T1D08 001:039 JLINK_ReadReg(R15 (PC))  returns 0x20000000 (0000ms, 0772ms total)
T1D08 001:039 JLINK_ClrBPEx(BPHandle = 0x00000005)  returns 0x00 (0000ms, 0772ms total)
T1D08 001:039 JLINK_ReadReg(R0)  returns 0x00000000 (0000ms, 0772ms total)
T1D08 001:039 JLINK_WriteMem(0x20000164, 0x0400 Bytes, ...) - Data: 18 ED 00 E0 00 E4 00 E0 08 00 00 20 70 47 00 BF ... -- CPU_WriteMem(1024 bytes @ 0x20000164)  returns 0x400 (0013ms, 0785ms total)
T1D08 001:052 JLINK_WriteReg(R0, 0x08000400)  returns 0x00 (0000ms, 0785ms total)
T1D08 001:052 JLINK_WriteReg(R1, 0x00000400)  returns 0x00 (0000ms, 0785ms total)
T1D08 001:052 JLINK_WriteReg(R2, 0x20000164)  returns 0x00 (0000ms, 0785ms total)
T1D08 001:052 JLINK_WriteReg(R3, 0x00000000)  returns 0x00 (0000ms, 0785ms total)
T1D08 001:052 JLINK_WriteReg(R4, 0x00000000)  returns 0x00 (0000ms, 0785ms total)
T1D08 001:052 JLINK_WriteReg(R5, 0x00000000)  returns 0x00 (0000ms, 0785ms total)
T1D08 001:052 JLINK_WriteReg(R6, 0x00000000)  returns 0x00 (0000ms, 0785ms total)
T1D08 001:052 JLINK_WriteReg(R7, 0x00000000)  returns 0x00 (0000ms, 0785ms total)
T1D08 001:052 JLINK_WriteReg(R8, 0x00000000)  returns 0x00 (0000ms, 0785ms total)
T1D08 001:052 JLINK_WriteReg(R9, 0x20000160)  returns 0x00 (0000ms, 0785ms total)
T1D08 001:052 JLINK_WriteReg(R10, 0x00000000)  returns 0x00 (0000ms, 0785ms total)
T1D08 001:052 JLINK_WriteReg(R11, 0x00000000)  returns 0x00 (0000ms, 0785ms total)
T1D08 001:052 JLINK_WriteReg(R12, 0x00000000)  returns 0x00 (0000ms, 0785ms total)
T1D08 001:052 JLINK_WriteReg(R13 (SP), 0x20000800)  returns 0x00 (0000ms, 0785ms total)
T1D08 001:052 JLINK_WriteReg(R14, 0x20000001)  returns 0x00 (0000ms, 0785ms total)
T1D08 001:052 JLINK_WriteReg(R15 (PC), 0x200000F4)  returns 0x00 (0000ms, 0785ms total)
T1D08 001:052 JLINK_WriteReg(XPSR, 0x01000000)  returns 0x00 (0000ms, 0785ms total)
T1D08 001:052 JLINK_WriteReg(MSP, 0x20000800)  returns 0x00 (0000ms, 0785ms total)
T1D08 001:052 JLINK_WriteReg(PSP, 0x20000800)  returns 0x00 (0000ms, 0785ms total)
T1D08 001:052 JLINK_WriteReg(CFBP, 0x00000000)  returns 0x00 (0000ms, 0785ms total)
T1D08 001:052 JLINK_SetBPEx(Addr = 0x20000000, Type = 0xFFFFFFF2)  returns 0x00000006 (0000ms, 0785ms total)
T1D08 001:052 JLINK_Go() (0003ms, 0788ms total)
T1D08 001:055 JLINK_IsHalted()  returns FALSE (0001ms, 0789ms total)
T1D08 001:057 JLINK_IsHalted()  returns FALSE (0001ms, 0789ms total)
T1D08 001:066 JLINK_IsHalted()  returns FALSE (0001ms, 0789ms total)
T1D08 001:068 JLINK_IsHalted()  returns FALSE (0001ms, 0789ms total)
T1D08 001:070 JLINK_IsHalted()  returns FALSE (0001ms, 0789ms total)
T1D08 001:072 JLINK_IsHalted()  returns FALSE (0001ms, 0789ms total)
T1D08 001:074 JLINK_IsHalted()  returns FALSE (0001ms, 0789ms total)
T1D08 001:076 JLINK_IsHalted()  returns FALSE (0001ms, 0789ms total)
T1D08 001:078 JLINK_IsHalted()  returns FALSE (0001ms, 0789ms total)
T1D08 001:087 JLINK_IsHalted() -- CPU_ReadMem(2 bytes @ 0x20000000)  returns TRUE (0005ms, 0793ms total)
T1D08 001:092 JLINK_ReadReg(R15 (PC))  returns 0x20000000 (0000ms, 0788ms total)
T1D08 001:092 JLINK_ClrBPEx(BPHandle = 0x00000006)  returns 0x00 (0000ms, 0788ms total)
T1D08 001:092 JLINK_ReadReg(R0)  returns 0x00000000 (0000ms, 0788ms total)
T1D08 001:093 JLINK_WriteMem(0x20000164, 0x0400 Bytes, ...) - Data: 64 20 FF F7 D4 FD 04 21 D3 48 07 F0 AA FE 80 21 ... -- CPU_WriteMem(1024 bytes @ 0x20000164)  returns 0x400 (0013ms, 0801ms total)
T1D08 001:106 JLINK_WriteReg(R0, 0x08000800)  returns 0x00 (0000ms, 0801ms total)
T1D08 001:106 JLINK_WriteReg(R1, 0x00000400)  returns 0x00 (0000ms, 0801ms total)
T1D08 001:106 JLINK_WriteReg(R2, 0x20000164)  returns 0x00 (0000ms, 0801ms total)
T1D08 001:106 JLINK_WriteReg(R3, 0x00000000)  returns 0x00 (0000ms, 0801ms total)
T1D08 001:106 JLINK_WriteReg(R4, 0x00000000)  returns 0x00 (0000ms, 0801ms total)
T1D08 001:106 JLINK_WriteReg(R5, 0x00000000)  returns 0x00 (0000ms, 0801ms total)
T1D08 001:106 JLINK_WriteReg(R6, 0x00000000)  returns 0x00 (0000ms, 0801ms total)
T1D08 001:106 JLINK_WriteReg(R7, 0x00000000)  returns 0x00 (0000ms, 0801ms total)
T1D08 001:106 JLINK_WriteReg(R8, 0x00000000)  returns 0x00 (0000ms, 0801ms total)
T1D08 001:106 JLINK_WriteReg(R9, 0x20000160)  returns 0x00 (0000ms, 0801ms total)
T1D08 001:106 JLINK_WriteReg(R10, 0x00000000)  returns 0x00 (0000ms, 0801ms total)
T1D08 001:106 JLINK_WriteReg(R11, 0x00000000)  returns 0x00 (0001ms, 0802ms total)
T1D08 001:107 JLINK_WriteReg(R12, 0x00000000)  returns 0x00 (0000ms, 0802ms total)
T1D08 001:107 JLINK_WriteReg(R13 (SP), 0x20000800)  returns 0x00 (0000ms, 0802ms total)
T1D08 001:107 JLINK_WriteReg(R14, 0x20000001)  returns 0x00 (0000ms, 0802ms total)
T1D08 001:107 JLINK_WriteReg(R15 (PC), 0x200000F4)  returns 0x00 (0000ms, 0802ms total)
T1D08 001:107 JLINK_WriteReg(XPSR, 0x01000000)  returns 0x00 (0000ms, 0802ms total)
T1D08 001:107 JLINK_WriteReg(MSP, 0x20000800)  returns 0x00 (0000ms, 0802ms total)
T1D08 001:107 JLINK_WriteReg(PSP, 0x20000800)  returns 0x00 (0000ms, 0802ms total)
T1D08 001:107 JLINK_WriteReg(CFBP, 0x00000000)  returns 0x00 (0000ms, 0802ms total)
T1D08 001:107 JLINK_SetBPEx(Addr = 0x20000000, Type = 0xFFFFFFF2)  returns 0x00000007 (0000ms, 0802ms total)
T1D08 001:107 JLINK_Go() (0003ms, 0805ms total)
T1D08 001:110 JLINK_IsHalted()  returns FALSE (0001ms, 0806ms total)
T1D08 001:121 JLINK_IsHalted()  returns FALSE (0003ms, 0808ms total)
T1D08 001:130 JLINK_IsHalted()  returns FALSE (0001ms, 0806ms total)
T1D08 001:135 JLINK_IsHalted()  returns FALSE (0001ms, 0806ms total)
T1D08 001:137 JLINK_IsHalted()  returns FALSE (0001ms, 0806ms total)
T1D08 001:139 JLINK_IsHalted()  returns FALSE (0001ms, 0806ms total)
T1D08 001:144 JLINK_IsHalted() -- CPU_ReadMem(2 bytes @ 0x20000000)  returns TRUE (0005ms, 0810ms total)
T1D08 001:149 JLINK_ReadReg(R15 (PC))  returns 0x20000000 (0000ms, 0805ms total)
T1D08 001:149 JLINK_ClrBPEx(BPHandle = 0x00000007)  returns 0x00 (0000ms, 0805ms total)
T1D08 001:149 JLINK_ReadReg(R0)  returns 0x00000000 (0000ms, 0805ms total)
T1D08 001:150 JLINK_WriteMem(0x20000164, 0x0400 Bytes, ...) - Data: 01 90 E0 48 C0 68 C8 30 00 90 DD E9 01 12 FF F7 ... -- CPU_WriteMem(1024 bytes @ 0x20000164)  returns 0x400 (0012ms, 0817ms total)
T1D08 001:162 JLINK_WriteReg(R0, 0x08000C00)  returns 0x00 (0000ms, 0817ms total)
T1D08 001:162 JLINK_WriteReg(R1, 0x00000400)  returns 0x00 (0000ms, 0817ms total)
T1D08 001:162 JLINK_WriteReg(R2, 0x20000164)  returns 0x00 (0000ms, 0817ms total)
T1D08 001:162 JLINK_WriteReg(R3, 0x00000000)  returns 0x00 (0000ms, 0817ms total)
T1D08 001:162 JLINK_WriteReg(R4, 0x00000000)  returns 0x00 (0000ms, 0817ms total)
T1D08 001:162 JLINK_WriteReg(R5, 0x00000000)  returns 0x00 (0000ms, 0817ms total)
T1D08 001:162 JLINK_WriteReg(R6, 0x00000000)  returns 0x00 (0000ms, 0817ms total)
T1D08 001:162 JLINK_WriteReg(R7, 0x00000000)  returns 0x00 (0000ms, 0817ms total)
T1D08 001:162 JLINK_WriteReg(R8, 0x00000000)  returns 0x00 (0000ms, 0817ms total)
T1D08 001:163 JLINK_WriteReg(R9, 0x20000160)  returns 0x00 (0000ms, 0818ms total)
T1D08 001:163 JLINK_WriteReg(R10, 0x00000000)  returns 0x00 (0000ms, 0818ms total)
T1D08 001:163 JLINK_WriteReg(R11, 0x00000000)  returns 0x00 (0000ms, 0818ms total)
T1D08 001:163 JLINK_WriteReg(R12, 0x00000000)  returns 0x00 (0000ms, 0818ms total)
T1D08 001:163 JLINK_WriteReg(R13 (SP), 0x20000800)  returns 0x00 (0000ms, 0818ms total)
T1D08 001:163 JLINK_WriteReg(R14, 0x20000001)  returns 0x00 (0000ms, 0818ms total)
T1D08 001:163 JLINK_WriteReg(R15 (PC), 0x200000F4)  returns 0x00 (0000ms, 0818ms total)
T1D08 001:163 JLINK_WriteReg(XPSR, 0x01000000)  returns 0x00 (0000ms, 0818ms total)
T1D08 001:163 JLINK_WriteReg(MSP, 0x20000800)  returns 0x00 (0000ms, 0818ms total)
T1D08 001:163 JLINK_WriteReg(PSP, 0x20000800)  returns 0x00 (0000ms, 0818ms total)
T1D08 001:163 JLINK_WriteReg(CFBP, 0x00000000)  returns 0x00 (0000ms, 0818ms total)
T1D08 001:163 JLINK_SetBPEx(Addr = 0x20000000, Type = 0xFFFFFFF2)  returns 0x00000008 (0000ms, 0818ms total)
T1D08 001:163 JLINK_Go() (0002ms, 0820ms total)
T1D08 001:165 JLINK_IsHalted()  returns FALSE (0001ms, 0821ms total)
T1D08 001:169 JLINK_IsHalted()  returns FALSE (0001ms, 0821ms total)
T1D08 001:171 JLINK_IsHalted()  returns FALSE (0001ms, 0821ms total)
T1D08 001:174 JLINK_IsHalted()  returns FALSE (0001ms, 0821ms total)
T1D08 001:176 JLINK_IsHalted()  returns FALSE (0001ms, 0821ms total)
T1D08 001:178 JLINK_IsHalted()  returns FALSE (0001ms, 0821ms total)
T1D08 001:181 JLINK_IsHalted()  returns FALSE (0001ms, 0821ms total)
T1D08 001:183 JLINK_IsHalted()  returns FALSE (0003ms, 0823ms total)
T1D08 001:193 JLINK_IsHalted()  returns FALSE (0001ms, 0821ms total)
T1D08 001:195 JLINK_IsHalted()  returns FALSE (0001ms, 0821ms total)
T1D08 001:198 JLINK_IsHalted() -- CPU_ReadMem(2 bytes @ 0x20000000)  returns TRUE (0005ms, 0825ms total)
T1D08 001:203 JLINK_ReadReg(R15 (PC))  returns 0x20000000 (0000ms, 0820ms total)
T1D08 001:203 JLINK_ClrBPEx(BPHandle = 0x00000008)  returns 0x00 (0000ms, 0820ms total)
T1D08 001:203 JLINK_ReadReg(R0)  returns 0x00000000 (0000ms, 0820ms total)
T1D08 001:203 JLINK_WriteMem(0x20000164, 0x0400 Bytes, ...) - Data: 01 12 FF F7 1D FC E0 48 40 69 00 F5 C8 70 02 90 ... -- CPU_WriteMem(1024 bytes @ 0x20000164)  returns 0x400 (0013ms, 0833ms total)
T1D08 001:216 JLINK_WriteReg(R0, 0x08001000)  returns 0x00 (0000ms, 0833ms total)
T1D08 001:216 JLINK_WriteReg(R1, 0x00000400)  returns 0x00 (0000ms, 0833ms total)
T1D08 001:216 JLINK_WriteReg(R2, 0x20000164)  returns 0x00 (0000ms, 0833ms total)
T1D08 001:216 JLINK_WriteReg(R3, 0x00000000)  returns 0x00 (0000ms, 0833ms total)
T1D08 001:216 JLINK_WriteReg(R4, 0x00000000)  returns 0x00 (0000ms, 0833ms total)
T1D08 001:216 JLINK_WriteReg(R5, 0x00000000)  returns 0x00 (0000ms, 0833ms total)
T1D08 001:216 JLINK_WriteReg(R6, 0x00000000)  returns 0x00 (0000ms, 0833ms total)
T1D08 001:216 JLINK_WriteReg(R7, 0x00000000)  returns 0x00 (0000ms, 0833ms total)
T1D08 001:216 JLINK_WriteReg(R8, 0x00000000)  returns 0x00 (0000ms, 0833ms total)
T1D08 001:216 JLINK_WriteReg(R9, 0x20000160)  returns 0x00 (0000ms, 0833ms total)
T1D08 001:216 JLINK_WriteReg(R10, 0x00000000)  returns 0x00 (0000ms, 0833ms total)
T1D08 001:216 JLINK_WriteReg(R11, 0x00000000)  returns 0x00 (0000ms, 0833ms total)
T1D08 001:216 JLINK_WriteReg(R12, 0x00000000)  returns 0x00 (0000ms, 0833ms total)
T1D08 001:216 JLINK_WriteReg(R13 (SP), 0x20000800)  returns 0x00 (0000ms, 0833ms total)
T1D08 001:216 JLINK_WriteReg(R14, 0x20000001)  returns 0x00 (0000ms, 0833ms total)
T1D08 001:216 JLINK_WriteReg(R15 (PC), 0x200000F4)  returns 0x00 (0000ms, 0833ms total)
T1D08 001:216 JLINK_WriteReg(XPSR, 0x01000000)  returns 0x00 (0000ms, 0833ms total)
T1D08 001:216 JLINK_WriteReg(MSP, 0x20000800)  returns 0x00 (0001ms, 0834ms total)
T1D08 001:217 JLINK_WriteReg(PSP, 0x20000800)  returns 0x00 (0000ms, 0834ms total)
T1D08 001:217 JLINK_WriteReg(CFBP, 0x00000000)  returns 0x00 (0000ms, 0834ms total)
T1D08 001:217 JLINK_SetBPEx(Addr = 0x20000000, Type = 0xFFFFFFF2)  returns 0x00000009 (0000ms, 0834ms total)
T1D08 001:217 JLINK_Go() (0002ms, 0836ms total)
T1D08 001:219 JLINK_IsHalted()  returns FALSE (0001ms, 0837ms total)
T1D08 001:226 JLINK_IsHalted()  returns FALSE (0001ms, 0837ms total)
T1D08 001:229 JLINK_IsHalted()  returns FALSE (0001ms, 0837ms total)
T1D08 001:232 JLINK_IsHalted()  returns FALSE (0001ms, 0837ms total)
T1D08 001:234 JLINK_IsHalted()  returns FALSE (0001ms, 0837ms total)
T1D08 001:238 JLINK_IsHalted()  returns FALSE (0001ms, 0837ms total)
T1D08 001:240 JLINK_IsHalted()  returns FALSE (0001ms, 0837ms total)
T1D08 001:242 JLINK_IsHalted()  returns FALSE (0001ms, 0837ms total)
T1D08 001:247 JLINK_IsHalted()  returns FALSE (0001ms, 0837ms total)
T1D08 001:249 JLINK_IsHalted()  returns FALSE (0001ms, 0837ms total)
T1D08 001:251 JLINK_IsHalted() -- CPU_ReadMem(2 bytes @ 0x20000000)  returns TRUE (0005ms, 0841ms total)
T1D08 001:256 JLINK_ReadReg(R15 (PC))  returns 0x20000000 (0000ms, 0836ms total)
T1D08 001:256 JLINK_ClrBPEx(BPHandle = 0x00000009)  returns 0x00 (0000ms, 0836ms total)
T1D08 001:256 JLINK_ReadReg(R0)  returns 0x00000000 (0000ms, 0836ms total)
T1D08 001:256 JLINK_WriteMem(0x20000164, 0x0400 Bytes, ...) - Data: 00 68 C8 38 00 90 DD E9 01 12 FF F7 05 FA E0 48 ... -- CPU_WriteMem(1024 bytes @ 0x20000164)  returns 0x400 (0013ms, 0849ms total)
T1D08 001:269 JLINK_WriteReg(R0, 0x08001400)  returns 0x00 (0000ms, 0849ms total)
T1D08 001:269 JLINK_WriteReg(R1, 0x00000400)  returns 0x00 (0000ms, 0849ms total)
T1D08 001:269 JLINK_WriteReg(R2, 0x20000164)  returns 0x00 (0000ms, 0849ms total)
T1D08 001:269 JLINK_WriteReg(R3, 0x00000000)  returns 0x00 (0000ms, 0849ms total)
T1D08 001:269 JLINK_WriteReg(R4, 0x00000000)  returns 0x00 (0000ms, 0849ms total)
T1D08 001:269 JLINK_WriteReg(R5, 0x00000000)  returns 0x00 (0000ms, 0849ms total)
T1D08 001:269 JLINK_WriteReg(R6, 0x00000000)  returns 0x00 (0000ms, 0849ms total)
T1D08 001:269 JLINK_WriteReg(R7, 0x00000000)  returns 0x00 (0000ms, 0849ms total)
T1D08 001:269 JLINK_WriteReg(R8, 0x00000000)  returns 0x00 (0000ms, 0849ms total)
T1D08 001:269 JLINK_WriteReg(R9, 0x20000160)  returns 0x00 (0000ms, 0849ms total)
T1D08 001:269 JLINK_WriteReg(R10, 0x00000000)  returns 0x00 (0000ms, 0849ms total)
T1D08 001:269 JLINK_WriteReg(R11, 0x00000000)  returns 0x00 (0000ms, 0849ms total)
T1D08 001:269 JLINK_WriteReg(R12, 0x00000000)  returns 0x00 (0000ms, 0849ms total)
T1D08 001:269 JLINK_WriteReg(R13 (SP), 0x20000800)  returns 0x00 (0000ms, 0849ms total)
T1D08 001:269 JLINK_WriteReg(R14, 0x20000001)  returns 0x00 (0000ms, 0849ms total)
T1D08 001:269 JLINK_WriteReg(R15 (PC), 0x200000F4)  returns 0x00 (0000ms, 0849ms total)
T1D08 001:269 JLINK_WriteReg(XPSR, 0x01000000)  returns 0x00 (0000ms, 0849ms total)
T1D08 001:269 JLINK_WriteReg(MSP, 0x20000800)  returns 0x00 (0000ms, 0849ms total)
T1D08 001:269 JLINK_WriteReg(PSP, 0x20000800)  returns 0x00 (0001ms, 0850ms total)
T1D08 001:270 JLINK_WriteReg(CFBP, 0x00000000)  returns 0x00 (0000ms, 0850ms total)
T1D08 001:270 JLINK_SetBPEx(Addr = 0x20000000, Type = 0xFFFFFFF2)  returns 0x0000000A (0000ms, 0850ms total)
T1D08 001:270 JLINK_Go() (0002ms, 0852ms total)
T1D08 001:272 JLINK_IsHalted()  returns FALSE (0001ms, 0853ms total)
T1D08 001:276 JLINK_IsHalted()  returns FALSE (0001ms, 0853ms total)
T1D08 001:278 JLINK_IsHalted()  returns FALSE (0001ms, 0853ms total)
T1D08 001:280 JLINK_IsHalted()  returns FALSE (0001ms, 0853ms total)
T1D08 001:282 JLINK_IsHalted()  returns FALSE (0001ms, 0853ms total)
T1D08 001:286 JLINK_IsHalted()  returns FALSE (0001ms, 0853ms total)
T1D08 001:288 JLINK_IsHalted()  returns FALSE (0001ms, 0853ms total)
T1D08 001:290 JLINK_IsHalted()  returns FALSE (0001ms, 0853ms total)
T1D08 001:298 JLINK_IsHalted()  returns FALSE (0001ms, 0853ms total)
T1D08 001:300 JLINK_IsHalted()  returns FALSE (0001ms, 0853ms total)
T1D08 001:302 JLINK_IsHalted()  returns FALSE (0001ms, 0853ms total)
T1D08 001:304 JLINK_IsHalted() -- CPU_ReadMem(2 bytes @ 0x20000000)  returns TRUE (0005ms, 0857ms total)
T1D08 001:309 JLINK_ReadReg(R15 (PC))  returns 0x20000000 (0000ms, 0852ms total)
T1D08 001:309 JLINK_ClrBPEx(BPHandle = 0x0000000A)  returns 0x00 (0000ms, 0852ms total)
T1D08 001:309 JLINK_ReadReg(R0)  returns 0x00000000 (0000ms, 0852ms total)
T1D08 001:309 JLINK_WriteMem(0x20000164, 0x0400 Bytes, ...) - Data: E2 48 80 68 A0 F5 C8 70 02 90 E0 48 40 68 A0 F5 ... -- CPU_WriteMem(1024 bytes @ 0x20000164)  returns 0x400 (0013ms, 0865ms total)
T1D08 001:322 JLINK_WriteReg(R0, 0x08001800)  returns 0x00 (0000ms, 0865ms total)
T1D08 001:322 JLINK_WriteReg(R1, 0x00000400)  returns 0x00 (0000ms, 0865ms total)
T1D08 001:322 JLINK_WriteReg(R2, 0x20000164)  returns 0x00 (0000ms, 0865ms total)
T1D08 001:322 JLINK_WriteReg(R3, 0x00000000)  returns 0x00 (0000ms, 0865ms total)
T1D08 001:322 JLINK_WriteReg(R4, 0x00000000)  returns 0x00 (0000ms, 0865ms total)
T1D08 001:322 JLINK_WriteReg(R5, 0x00000000)  returns 0x00 (0000ms, 0865ms total)
T1D08 001:322 JLINK_WriteReg(R6, 0x00000000)  returns 0x00 (0000ms, 0865ms total)
T1D08 001:322 JLINK_WriteReg(R7, 0x00000000)  returns 0x00 (0000ms, 0865ms total)
T1D08 001:322 JLINK_WriteReg(R8, 0x00000000)  returns 0x00 (0000ms, 0865ms total)
T1D08 001:322 JLINK_WriteReg(R9, 0x20000160)  returns 0x00 (0000ms, 0865ms total)
T1D08 001:322 JLINK_WriteReg(R10, 0x00000000)  returns 0x00 (0000ms, 0865ms total)
T1D08 001:322 JLINK_WriteReg(R11, 0x00000000)  returns 0x00 (0000ms, 0865ms total)
T1D08 001:322 JLINK_WriteReg(R12, 0x00000000)  returns 0x00 (0000ms, 0865ms total)
T1D08 001:322 JLINK_WriteReg(R13 (SP), 0x20000800)  returns 0x00 (0000ms, 0865ms total)
T1D08 001:322 JLINK_WriteReg(R14, 0x20000001)  returns 0x00 (0000ms, 0865ms total)
T1D08 001:322 JLINK_WriteReg(R15 (PC), 0x200000F4)  returns 0x00 (0000ms, 0865ms total)
T1D08 001:322 JLINK_WriteReg(XPSR, 0x01000000)  returns 0x00 (0000ms, 0865ms total)
T1D08 001:322 JLINK_WriteReg(MSP, 0x20000800)  returns 0x00 (0000ms, 0865ms total)
T1D08 001:322 JLINK_WriteReg(PSP, 0x20000800)  returns 0x00 (0001ms, 0866ms total)
T1D08 001:323 JLINK_WriteReg(CFBP, 0x00000000)  returns 0x00 (0000ms, 0866ms total)
T1D08 001:323 JLINK_SetBPEx(Addr = 0x20000000, Type = 0xFFFFFFF2)  returns 0x0000000B (0000ms, 0866ms total)
T1D08 001:323 JLINK_Go() (0003ms, 0869ms total)
T1D08 001:326 JLINK_IsHalted()  returns FALSE (0002ms, 0871ms total)
T1D08 001:335 JLINK_IsHalted()  returns FALSE (0001ms, 0870ms total)
T1D08 001:337 JLINK_IsHalted()  returns FALSE (0001ms, 0870ms total)
T1D08 001:339 JLINK_IsHalted()  returns FALSE (0001ms, 0870ms total)
T1D08 001:341 JLINK_IsHalted()  returns FALSE (0001ms, 0870ms total)
T1D08 001:345 JLINK_IsHalted()  returns FALSE (0001ms, 0870ms total)
T1D08 001:348 JLINK_IsHalted()  returns FALSE (0001ms, 0870ms total)
T1D08 001:350 JLINK_IsHalted()  returns FALSE (0001ms, 0870ms total)
T1D08 001:352 JLINK_IsHalted()  returns FALSE (0003ms, 0872ms total)
T1D08 001:358 JLINK_IsHalted() -- CPU_ReadMem(2 bytes @ 0x20000000)  returns TRUE (0004ms, 0873ms total)
T1D08 001:362 JLINK_ReadReg(R15 (PC))  returns 0x20000000 (0000ms, 0869ms total)
T1D08 001:362 JLINK_ClrBPEx(BPHandle = 0x0000000B)  returns 0x00 (0000ms, 0869ms total)
T1D08 001:362 JLINK_ReadReg(R0)  returns 0x00000000 (0000ms, 0869ms total)
T1D08 001:363 JLINK_WriteMem(0x20000164, 0x0400 Bytes, ...) - Data: E6 4B 5B 68 03 F1 C8 01 E4 4B 1B 68 03 F1 C8 00 ... -- CPU_WriteMem(1024 bytes @ 0x20000164)  returns 0x400 (0012ms, 0881ms total)
T1D08 001:375 JLINK_WriteReg(R0, 0x08001C00)  returns 0x00 (0000ms, 0881ms total)
T1D08 001:375 JLINK_WriteReg(R1, 0x00000400)  returns 0x00 (0000ms, 0881ms total)
T1D08 001:375 JLINK_WriteReg(R2, 0x20000164)  returns 0x00 (0000ms, 0881ms total)
T1D08 001:375 JLINK_WriteReg(R3, 0x00000000)  returns 0x00 (0000ms, 0881ms total)
T1D08 001:375 JLINK_WriteReg(R4, 0x00000000)  returns 0x00 (0000ms, 0881ms total)
T1D08 001:375 JLINK_WriteReg(R5, 0x00000000)  returns 0x00 (0000ms, 0881ms total)
T1D08 001:375 JLINK_WriteReg(R6, 0x00000000)  returns 0x00 (0000ms, 0881ms total)
T1D08 001:375 JLINK_WriteReg(R7, 0x00000000)  returns 0x00 (0000ms, 0881ms total)
T1D08 001:375 JLINK_WriteReg(R8, 0x00000000)  returns 0x00 (0000ms, 0881ms total)
T1D08 001:375 JLINK_WriteReg(R9, 0x20000160)  returns 0x00 (0000ms, 0881ms total)
T1D08 001:375 JLINK_WriteReg(R10, 0x00000000)  returns 0x00 (0000ms, 0881ms total)
T1D08 001:375 JLINK_WriteReg(R11, 0x00000000)  returns 0x00 (0001ms, 0882ms total)
T1D08 001:376 JLINK_WriteReg(R12, 0x00000000)  returns 0x00 (0000ms, 0882ms total)
T1D08 001:376 JLINK_WriteReg(R13 (SP), 0x20000800)  returns 0x00 (0000ms, 0882ms total)
T1D08 001:376 JLINK_WriteReg(R14, 0x20000001)  returns 0x00 (0000ms, 0882ms total)
T1D08 001:376 JLINK_WriteReg(R15 (PC), 0x200000F4)  returns 0x00 (0000ms, 0882ms total)
T1D08 001:376 JLINK_WriteReg(XPSR, 0x01000000)  returns 0x00 (0000ms, 0882ms total)
T1D08 001:376 JLINK_WriteReg(MSP, 0x20000800)  returns 0x00 (0000ms, 0882ms total)
T1D08 001:376 JLINK_WriteReg(PSP, 0x20000800)  returns 0x00 (0000ms, 0882ms total)
T1D08 001:376 JLINK_WriteReg(CFBP, 0x00000000)  returns 0x00 (0000ms, 0882ms total)
T1D08 001:376 JLINK_SetBPEx(Addr = 0x20000000, Type = 0xFFFFFFF2)  returns 0x0000000C (0000ms, 0882ms total)
T1D08 001:376 JLINK_Go() (0002ms, 0884ms total)
T1D08 001:378 JLINK_IsHalted()  returns FALSE (0001ms, 0885ms total)
T1D08 001:385 JLINK_IsHalted()  returns FALSE (0001ms, 0885ms total)
T1D08 001:387 JLINK_IsHalted()  returns FALSE (0001ms, 0885ms total)
T1D08 001:389 JLINK_IsHalted()  returns FALSE (0001ms, 0885ms total)
T1D08 001:391 JLINK_IsHalted()  returns FALSE (0001ms, 0885ms total)
T1D08 001:393 JLINK_IsHalted()  returns FALSE (0001ms, 0885ms total)
T1D08 001:395 JLINK_IsHalted()  returns FALSE (0001ms, 0885ms total)
T1D08 001:397 JLINK_IsHalted()  returns FALSE (0001ms, 0885ms total)
T1D08 001:399 JLINK_IsHalted()  returns FALSE (0001ms, 0885ms total)
T1D08 001:401 JLINK_IsHalted()  returns FALSE (0001ms, 0885ms total)
T1D08 001:403 JLINK_IsHalted()  returns FALSE (0001ms, 0885ms total)
T1D08 001:409 JLINK_IsHalted() -- CPU_ReadMem(2 bytes @ 0x20000000)  returns TRUE (0004ms, 0888ms total)
T1D08 001:413 JLINK_ReadReg(R15 (PC))  returns 0x20000000 (0001ms, 0885ms total)
T1D08 001:414 JLINK_ClrBPEx(BPHandle = 0x0000000C)  returns 0x00 (0000ms, 0885ms total)
T1D08 001:414 JLINK_ReadReg(R0)  returns 0x00000000 (0000ms, 0885ms total)
T1D08 001:414 JLINK_WriteMem(0x20000164, 0x0400 Bytes, ...) - Data: FE F7 1E FC E8 4B 5A 69 19 69 D8 68 FE F7 09 FC ... -- CPU_WriteMem(1024 bytes @ 0x20000164)  returns 0x400 (0012ms, 0897ms total)
T1D08 001:426 JLINK_WriteReg(R0, 0x08002000)  returns 0x00 (0000ms, 0897ms total)
T1D08 001:426 JLINK_WriteReg(R1, 0x00000400)  returns 0x00 (0000ms, 0897ms total)
T1D08 001:426 JLINK_WriteReg(R2, 0x20000164)  returns 0x00 (0000ms, 0897ms total)
T1D08 001:426 JLINK_WriteReg(R3, 0x00000000)  returns 0x00 (0000ms, 0897ms total)
T1D08 001:426 JLINK_WriteReg(R4, 0x00000000)  returns 0x00 (0000ms, 0897ms total)
T1D08 001:426 JLINK_WriteReg(R5, 0x00000000)  returns 0x00 (0000ms, 0897ms total)
T1D08 001:426 JLINK_WriteReg(R6, 0x00000000)  returns 0x00 (0001ms, 0898ms total)
T1D08 001:427 JLINK_WriteReg(R7, 0x00000000)  returns 0x00 (0000ms, 0898ms total)
T1D08 001:427 JLINK_WriteReg(R8, 0x00000000)  returns 0x00 (0000ms, 0898ms total)
T1D08 001:427 JLINK_WriteReg(R9, 0x20000160)  returns 0x00 (0000ms, 0898ms total)
T1D08 001:427 JLINK_WriteReg(R10, 0x00000000)  returns 0x00 (0000ms, 0898ms total)
T1D08 001:427 JLINK_WriteReg(R11, 0x00000000)  returns 0x00 (0000ms, 0898ms total)
T1D08 001:427 JLINK_WriteReg(R12, 0x00000000)  returns 0x00 (0000ms, 0898ms total)
T1D08 001:427 JLINK_WriteReg(R13 (SP), 0x20000800)  returns 0x00 (0000ms, 0898ms total)
T1D08 001:427 JLINK_WriteReg(R14, 0x20000001)  returns 0x00 (0000ms, 0898ms total)
T1D08 001:427 JLINK_WriteReg(R15 (PC), 0x200000F4)  returns 0x00 (0000ms, 0898ms total)
T1D08 001:427 JLINK_WriteReg(XPSR, 0x01000000)  returns 0x00 (0000ms, 0898ms total)
T1D08 001:427 JLINK_WriteReg(MSP, 0x20000800)  returns 0x00 (0000ms, 0898ms total)
T1D08 001:427 JLINK_WriteReg(PSP, 0x20000800)  returns 0x00 (0000ms, 0898ms total)
T1D08 001:427 JLINK_WriteReg(CFBP, 0x00000000)  returns 0x00 (0000ms, 0898ms total)
T1D08 001:427 JLINK_SetBPEx(Addr = 0x20000000, Type = 0xFFFFFFF2)  returns 0x0000000D (0000ms, 0898ms total)
T1D08 001:427 JLINK_Go() (0002ms, 0900ms total)
T1D08 001:429 JLINK_IsHalted()  returns FALSE (0001ms, 0901ms total)
T1D08 001:441 JLINK_IsHalted()  returns FALSE (0001ms, 0901ms total)
T1D08 001:443 JLINK_IsHalted()  returns FALSE (0001ms, 0901ms total)
T1D08 001:445 JLINK_IsHalted()  returns FALSE (0001ms, 0901ms total)
T1D08 001:447 JLINK_IsHalted()  returns FALSE (0001ms, 0901ms total)
T1D08 001:449 JLINK_IsHalted()  returns FALSE (0001ms, 0901ms total)
T1D08 001:452 JLINK_IsHalted()  returns FALSE (0001ms, 0901ms total)
T1D08 001:454 JLINK_IsHalted()  returns FALSE (0001ms, 0901ms total)
T1D08 001:456 JLINK_IsHalted()  returns FALSE (0001ms, 0901ms total)
T1D08 001:458 JLINK_IsHalted()  returns FALSE (0001ms, 0901ms total)
T1D08 001:460 JLINK_IsHalted() -- CPU_ReadMem(2 bytes @ 0x20000000)  returns TRUE (0005ms, 0905ms total)
T1D08 001:465 JLINK_ReadReg(R15 (PC))  returns 0x20000000 (0000ms, 0900ms total)
T1D08 001:465 JLINK_ClrBPEx(BPHandle = 0x0000000D)  returns 0x00 (0000ms, 0900ms total)
T1D08 001:465 JLINK_ReadReg(R0)  returns 0x00000000 (0000ms, 0900ms total)
T1D08 001:465 JLINK_WriteMem(0x20000164, 0x0400 Bytes, ...) - Data: FB 49 08 62 00 E0 00 24 F7 48 40 6A F7 49 49 6A ... -- CPU_WriteMem(1024 bytes @ 0x20000164)  returns 0x400 (0013ms, 0913ms total)
T1D08 001:478 JLINK_WriteReg(R0, 0x08002400)  returns 0x00 (0000ms, 0913ms total)
T1D08 001:478 JLINK_WriteReg(R1, 0x00000400)  returns 0x00 (0000ms, 0913ms total)
T1D08 001:478 JLINK_WriteReg(R2, 0x20000164)  returns 0x00 (0000ms, 0913ms total)
T1D08 001:478 JLINK_WriteReg(R3, 0x00000000)  returns 0x00 (0000ms, 0913ms total)
T1D08 001:478 JLINK_WriteReg(R4, 0x00000000)  returns 0x00 (0000ms, 0913ms total)
T1D08 001:478 JLINK_WriteReg(R5, 0x00000000)  returns 0x00 (0000ms, 0913ms total)
T1D08 001:478 JLINK_WriteReg(R6, 0x00000000)  returns 0x00 (0000ms, 0913ms total)
T1D08 001:478 JLINK_WriteReg(R7, 0x00000000)  returns 0x00 (0000ms, 0913ms total)
T1D08 001:478 JLINK_WriteReg(R8, 0x00000000)  returns 0x00 (0000ms, 0913ms total)
T1D08 001:479 JLINK_WriteReg(R9, 0x20000160)  returns 0x00 (0000ms, 0914ms total)
T1D08 001:479 JLINK_WriteReg(R10, 0x00000000)  returns 0x00 (0000ms, 0914ms total)
T1D08 001:479 JLINK_WriteReg(R11, 0x00000000)  returns 0x00 (0000ms, 0914ms total)
T1D08 001:479 JLINK_WriteReg(R12, 0x00000000)  returns 0x00 (0000ms, 0914ms total)
T1D08 001:479 JLINK_WriteReg(R13 (SP), 0x20000800)  returns 0x00 (0000ms, 0914ms total)
T1D08 001:479 JLINK_WriteReg(R14, 0x20000001)  returns 0x00 (0000ms, 0914ms total)
T1D08 001:479 JLINK_WriteReg(R15 (PC), 0x200000F4)  returns 0x00 (0000ms, 0914ms total)
T1D08 001:479 JLINK_WriteReg(XPSR, 0x01000000)  returns 0x00 (0000ms, 0914ms total)
T1D08 001:479 JLINK_WriteReg(MSP, 0x20000800)  returns 0x00 (0000ms, 0914ms total)
T1D08 001:479 JLINK_WriteReg(PSP, 0x20000800)  returns 0x00 (0000ms, 0914ms total)
T1D08 001:479 JLINK_WriteReg(CFBP, 0x00000000)  returns 0x00 (0000ms, 0914ms total)
T1D08 001:479 JLINK_SetBPEx(Addr = 0x20000000, Type = 0xFFFFFFF2)  returns 0x0000000E (0000ms, 0914ms total)
T1D08 001:479 JLINK_Go() (0003ms, 0917ms total)
T1D08 001:482 JLINK_IsHalted()  returns FALSE (0001ms, 0918ms total)
T1D08 001:495 JLINK_IsHalted()  returns FALSE (0001ms, 0918ms total)
T1D08 001:497 JLINK_IsHalted()  returns FALSE (0001ms, 0918ms total)
T1D08 001:499 JLINK_IsHalted()  returns FALSE (0001ms, 0918ms total)
T1D08 001:501 JLINK_IsHalted()  returns FALSE (0001ms, 0918ms total)
T1D08 001:503 JLINK_IsHalted()  returns FALSE (0001ms, 0918ms total)
T1D08 001:505 JLINK_IsHalted()  returns FALSE (0001ms, 0918ms total)
T1D08 001:507 JLINK_IsHalted()  returns FALSE (0001ms, 0918ms total)
T1D08 001:509 JLINK_IsHalted()  returns FALSE (0001ms, 0918ms total)
T1D08 001:517 JLINK_IsHalted() -- CPU_ReadMem(2 bytes @ 0x20000000)  returns TRUE (0004ms, 0921ms total)
T1D08 001:521 JLINK_ReadReg(R15 (PC))  returns 0x20000000 (0001ms, 0918ms total)
T1D08 001:522 JLINK_ClrBPEx(BPHandle = 0x0000000E)  returns 0x00 (0000ms, 0918ms total)
T1D08 001:522 JLINK_ReadReg(R0)  returns 0x00000000 (0000ms, 0918ms total)
T1D08 001:522 JLINK_WriteMem(0x20000164, 0x0400 Bytes, ...) - Data: 66 00 00 20 C0 01 00 20 09 6A 08 44 FA 49 08 62 ... -- CPU_WriteMem(1024 bytes @ 0x20000164)  returns 0x400 (0013ms, 0931ms total)
T1D08 001:535 JLINK_WriteReg(R0, 0x08002800)  returns 0x00 (0000ms, 0931ms total)
T1D08 001:535 JLINK_WriteReg(R1, 0x00000400)  returns 0x00 (0000ms, 0931ms total)
T1D08 001:535 JLINK_WriteReg(R2, 0x20000164)  returns 0x00 (0000ms, 0931ms total)
T1D08 001:535 JLINK_WriteReg(R3, 0x00000000)  returns 0x00 (0000ms, 0931ms total)
T1D08 001:535 JLINK_WriteReg(R4, 0x00000000)  returns 0x00 (0000ms, 0931ms total)
T1D08 001:535 JLINK_WriteReg(R5, 0x00000000)  returns 0x00 (0000ms, 0931ms total)
T1D08 001:535 JLINK_WriteReg(R6, 0x00000000)  returns 0x00 (0000ms, 0931ms total)
T1D08 001:535 JLINK_WriteReg(R7, 0x00000000)  returns 0x00 (0000ms, 0931ms total)
T1D08 001:535 JLINK_WriteReg(R8, 0x00000000)  returns 0x00 (0000ms, 0931ms total)
T1D08 001:535 JLINK_WriteReg(R9, 0x20000160)  returns 0x00 (0000ms, 0931ms total)
T1D08 001:535 JLINK_WriteReg(R10, 0x00000000)  returns 0x00 (0000ms, 0931ms total)
T1D08 001:535 JLINK_WriteReg(R11, 0x00000000)  returns 0x00 (0000ms, 0931ms total)
T1D08 001:535 JLINK_WriteReg(R12, 0x00000000)  returns 0x00 (0000ms, 0931ms total)
T1D08 001:535 JLINK_WriteReg(R13 (SP), 0x20000800)  returns 0x00 (0000ms, 0931ms total)
T1D08 001:535 JLINK_WriteReg(R14, 0x20000001)  returns 0x00 (0000ms, 0931ms total)
T1D08 001:535 JLINK_WriteReg(R15 (PC), 0x200000F4)  returns 0x00 (0000ms, 0931ms total)
T1D08 001:535 JLINK_WriteReg(XPSR, 0x01000000)  returns 0x00 (0000ms, 0931ms total)
T1D08 001:535 JLINK_WriteReg(MSP, 0x20000800)  returns 0x00 (0000ms, 0931ms total)
T1D08 001:535 JLINK_WriteReg(PSP, 0x20000800)  returns 0x00 (0000ms, 0931ms total)
T1D08 001:535 JLINK_WriteReg(CFBP, 0x00000000)  returns 0x00 (0000ms, 0931ms total)
T1D08 001:535 JLINK_SetBPEx(Addr = 0x20000000, Type = 0xFFFFFFF2)  returns 0x0000000F (0000ms, 0931ms total)
T1D08 001:535 JLINK_Go() (0003ms, 0934ms total)
T1D08 001:538 JLINK_IsHalted()  returns FALSE (0001ms, 0935ms total)
T1D08 001:541 JLINK_IsHalted()  returns FALSE (0001ms, 0935ms total)
T1D08 001:546 JLINK_IsHalted()  returns FALSE (0001ms, 0935ms total)
T1D08 001:548 JLINK_IsHalted()  returns FALSE (0001ms, 0935ms total)
T1D08 001:550 JLINK_IsHalted()  returns FALSE (0001ms, 0935ms total)
T1D08 001:552 JLINK_IsHalted()  returns FALSE (0001ms, 0935ms total)
T1D08 001:554 JLINK_IsHalted()  returns FALSE (0001ms, 0935ms total)
T1D08 001:556 JLINK_IsHalted()  returns FALSE (0001ms, 0935ms total)
T1D08 001:561 JLINK_IsHalted()  returns FALSE (0001ms, 0935ms total)
T1D08 001:563 JLINK_IsHalted()  returns FALSE (0001ms, 0935ms total)
T1D08 001:566 JLINK_IsHalted()  returns FALSE (0001ms, 0935ms total)
T1D08 001:568 JLINK_IsHalted()  returns FALSE (0001ms, 0935ms total)
T1D08 001:570 JLINK_IsHalted() -- CPU_ReadMem(2 bytes @ 0x20000000)  returns TRUE (0004ms, 0938ms total)
T1D08 001:575 JLINK_ReadReg(R15 (PC))  returns 0x20000000 (0000ms, 0934ms total)
T1D08 001:575 JLINK_ClrBPEx(BPHandle = 0x0000000F)  returns 0x00 (0000ms, 0934ms total)
T1D08 001:575 JLINK_ReadReg(R0)  returns 0x00000000 (0000ms, 0934ms total)
T1D08 001:575 JLINK_WriteMem(0x20000164, 0x0400 Bytes, ...) - Data: 34 01 00 20 C0 01 00 20 63 00 00 20 00 08 01 40 ... -- CPU_WriteMem(1024 bytes @ 0x20000164)  returns 0x400 (0013ms, 0947ms total)
T1D08 001:588 JLINK_WriteReg(R0, 0x08002C00)  returns 0x00 (0000ms, 0947ms total)
T1D08 001:588 JLINK_WriteReg(R1, 0x00000400)  returns 0x00 (0000ms, 0947ms total)
T1D08 001:588 JLINK_WriteReg(R2, 0x20000164)  returns 0x00 (0000ms, 0947ms total)
